
T3850 000:300 SEGGER J-Link V4.96d Log File (0000ms, 0279ms total)
T3850 000:300 DLL Compiled: Jan 29 2015 11:45:37 (0000ms, 0279ms total)
T3850 000:300 Logging started @ 2016-11-30 16:38 (0000ms, 0279ms total)
T3850 000:300 JLINK_SetWarnOutHandler(...) (0000ms, 0279ms total)
T3850 000:300 JLINK_OpenEx(...)
Firmware: J-Link ARM V8 compiled Nov 28 2014 13:44:46
Hardware: V8.00
S/N: 17935099
Feature(s): RDI,FlashDL,FlashBP,JFlash  returns O.K. (0266ms, 0545ms total)
T3850 000:566 JLINK_SetErrorOutHandler(...) (0000ms, 0545ms total)
T3850 000:566 JLINK_ExecCommand("ProjectFile = "C:\project\STM32\STM32F10x_StdPeriph_Lib_V3.5.0\Project\STM32F10x_StdPeriph_Template\MDK-ARM\JLinkSettings.ini"", ...)  returns 0x00 (0000ms, 0545ms total)
T3850 000:566 JLINK_ExecCommand("Device = STM32F103ZE", ...)Device "STM32F103ZE" selected.  returns 0x00 (0000ms, 0546ms total)
T3850 000:567 JLINK_ExecCommand("DisableConnectionTimeout", ...)  returns 0x01 (0000ms, 0546ms total)
T3850 000:567 JLINK_GetHardwareVersion()  returns 0x13880 (0000ms, 0546ms total)
T3850 000:567 JLINK_GetDLLVersion()  returns 49604 (0000ms, 0546ms total)
T3850 000:567 JLINK_GetFirmwareString(...) (0000ms, 0546ms total)
T3850 000:567 JLINK_GetDLLVersion()  returns 49604 (0001ms, 0547ms total)
T3850 000:568 JLINK_GetCompileDateTime() (0000ms, 0547ms total)
T3850 000:568 JLINK_GetFirmwareString(...) (0000ms, 0547ms total)
T3850 000:568 JLINK_GetHardwareVersion()  returns 0x13880 (0000ms, 0547ms total)
T3850 000:568 JLINK_TIF_Select(JLINKARM_TIF_JTAG)  returns 0x00 (0004ms, 0551ms total)
T3850 000:572 JLINK_SetSpeed(20000) (0001ms, 0552ms total)
T3850 000:573 JLINK_GetIdData(...) >0x2F8 JTAG>TotalIRLen = 9, IRPrint = 0x0011 >0x30 JTAG> >0x210 JTAG> >0x40 JTAG> >0x40 JTAG> >0x40 JTAG> >0x30 JTAG> >0x40 JTAG> >0x40 JTAG> >0x40 JTAG> >0x40 JTAG> >0x40 JTAG> >0x40 JTAG> >0x40 JTAG> >0x40 JTAG> >0x40 JTAG> >0x40 JTAG> >0x2F8 JTAG>TotalIRLen = 9, IRPrint = 0x0011 >0x30 JTAG> >0x210 JTAG> >0x70 JTAG> >0x40 JTAG> >0x40 JTAG> >0x40 JTAG> >0x50 JTAG> >0x80 JTAG> >0x40 JTAG> >0x30 JTAG> >0x40 JTAG> >0x40 JTAG> >0x30 JTAG> >0x40 JTAG> >0x50 JTAG>
Found Cortex-M3 r1p1, Little endian. -- CPU_WriteMem(4 bytes @ 0xE0002000) -- CPU_ReadMem(4 bytes @ 0xE000EDF0) -- CPU_WriteMem(4 bytes @ 0xE000EDF0) -- CPU_ReadMem(4 bytes @ 0xE0002000)FPUnit: 6 code (BP) slots and 2 literal slots -- CPU_ReadMem(4 bytes @ 0xE000EDFC) -- CPU_WriteMem(4 bytes @ 0xE000EDFC) -- CPU_ReadMem(4 bytes @ 0xE0001000) -- CPU_WriteMem(4 bytes @ 0xE0001000) -- CPU_ReadMem(4 bytes @ 0xE000ED88) -- CPU_WriteMem(4 bytes @ 0xE000ED88) -- CPU_ReadMem(4 bytes @ 0xE000ED88)
 -- CPU_WriteMem(4 bytes @ 0xE000ED88) -- CPU_ReadMem(4 bytes @ 0xE00FF010)TPIU fitted. -- CPU_ReadMem(4 bytes @ 0xE00FF014)ETM fitted. -- CPU_ReadMem(4 bytes @ 0xE00FF018) ScanLen=9 NumDevices=2 aId[0]=0x3BA00477 aIrRead[0]=0 aScanLen[0]=0 aScanRead[0]=0 (0050ms, 0602ms total)
T3850 000:623 JLINK_JTAG_GetDeviceID(DeviceIndex = 0)  returns 0x3BA00477 (0000ms, 0602ms total)
T3850 000:623 JLINK_JTAG_GetDeviceInfo(DeviceIndex = 0)  returns 0x00 (0000ms, 0602ms total)
T3850 000:623 JLINK_JTAG_GetDeviceID(DeviceIndex = 1)  returns 0x6414041 (0000ms, 0602ms total)
T3850 000:623 JLINK_JTAG_GetDeviceInfo(DeviceIndex = 1)  returns 0x00 (0000ms, 0602ms total)
T3850 000:623 JLINK_GetDLLVersion()  returns 49604 (0000ms, 0602ms total)
T3850 000:623 JLINK_CORE_GetFound()  returns 0x30000FF (0000ms, 0602ms total)
T3850 000:623 JLINK_GetDebugInfo(0x100) -- Value=0xE00FF003  returns 0x00 (0000ms, 0602ms total)
T3850 000:623 JLINK_ReadMem (0xE00FF000, 0x0020 Bytes, ...) -- CPU is running -- CPU_ReadMem(32 bytes @ 0xE00FF000) - Data: 03 F0 F0 FF 03 20 F0 FF 03 30 F0 FF 03 10 F0 FF ...  returns 0x00 (0001ms, 0603ms total)
T3850 000:624 JLINK_ReadMem (0xE000EFF0, 0x0010 Bytes, ...) -- CPU is running -- CPU_ReadMem(16 bytes @ 0xE000EFF0) - Data: 0D 00 00 00 E0 00 00 00 05 00 00 00 B1 00 00 00  returns 0x00 (0001ms, 0604ms total)
T3850 000:625 JLINK_ReadMem (0xE000EFD0, 0x0020 Bytes, ...) -- CPU is running -- CPU_ReadMem(32 bytes @ 0xE000EFD0) - Data: 04 00 00 00 00 00 00 00 00 00 00 00 00 00 00 00 ...  returns 0x00 (0001ms, 0605ms total)
T3850 000:626 JLINK_ReadMem (0xE0001FF0, 0x0010 Bytes, ...) -- CPU is running -- CPU_ReadMem(16 bytes @ 0xE0001FF0) - Data: 0D 00 00 00 E0 00 00 00 05 00 00 00 B1 00 00 00  returns 0x00 (0001ms, 0606ms total)
T3850 000:627 JLINK_ReadMem (0xE0001FD0, 0x0020 Bytes, ...) -- CPU is running -- CPU_ReadMem(32 bytes @ 0xE0001FD0) - Data: 04 00 00 00 00 00 00 00 00 00 00 00 00 00 00 00 ...  returns 0x00 (0001ms, 0607ms total)
T3850 000:628 JLINK_ReadMem (0xE0002FF0, 0x0010 Bytes, ...) -- CPU is running -- CPU_ReadMem(16 bytes @ 0xE0002FF0) - Data: 0D 00 00 00 E0 00 00 00 05 00 00 00 B1 00 00 00  returns 0x00 (0001ms, 0608ms total)
T3850 000:629 JLINK_ReadMem (0xE0002FD0, 0x0020 Bytes, ...) -- CPU is running -- CPU_ReadMem(32 bytes @ 0xE0002FD0) - Data: 04 00 00 00 00 00 00 00 00 00 00 00 00 00 00 00 ...  returns 0x00 (0002ms, 0610ms total)
T3850 000:631 JLINK_ReadMem (0xE0000FF0, 0x0010 Bytes, ...) -- CPU is running -- CPU_ReadMem(16 bytes @ 0xE0000FF0) - Data: 0D 00 00 00 E0 00 00 00 05 00 00 00 B1 00 00 00  returns 0x00 (0000ms, 0610ms total)
T3850 000:631 JLINK_ReadMem (0xE0000FD0, 0x0020 Bytes, ...) -- CPU is running -- CPU_ReadMem(32 bytes @ 0xE0000FD0) - Data: 04 00 00 00 00 00 00 00 00 00 00 00 00 00 00 00 ...  returns 0x00 (0002ms, 0612ms total)
T3850 000:633 JLINK_ReadMem (0xE0040FF0, 0x0010 Bytes, ...) -- CPU is running -- CPU_ReadMem(16 bytes @ 0xE0040FF0) - Data: 0D 00 00 00 90 00 00 00 05 00 00 00 B1 00 00 00  returns 0x00 (0001ms, 0613ms total)
T3850 000:634 JLINK_ReadMem (0xE0040FD0, 0x0020 Bytes, ...) -- CPU is running -- CPU_ReadMem(32 bytes @ 0xE0040FD0) - Data: 04 00 00 00 00 00 00 00 00 00 00 00 00 00 00 00 ...  returns 0x00 (0001ms, 0614ms total)
T3850 000:635 JLINK_ReadMem (0xE0041FF0, 0x0010 Bytes, ...) -- CPU is running -- CPU_ReadMem(16 bytes @ 0xE0041FF0) - Data: 0D 00 00 00 90 00 00 00 05 00 00 00 B1 00 00 00  returns 0x00 (0001ms, 0615ms total)
T3850 000:636 JLINK_ReadMem (0xE0041FD0, 0x0020 Bytes, ...) -- CPU is running -- CPU_ReadMem(32 bytes @ 0xE0041FD0) - Data: 04 00 00 00 00 00 00 00 00 00 00 00 00 00 00 00 ...  returns 0x00 (0002ms, 0617ms total)
T3850 000:638 JLINK_ReadMemU32(0xE000ED00, 0x0001 Items, ...) -- CPU is running -- CPU_ReadMem(4 bytes @ 0xE000ED00) - Data: 31 C2 1F 41  returns 0x01 (0001ms, 0618ms total)
T3850 000:639 JLINK_SetResetType(JLINKARM_RESET_TYPE_NORMAL)  returns JLINKARM_RESET_TYPE_NORMAL (0000ms, 0618ms total)
T3850 000:639 JLINK_Reset() -- CPU is running -- CPU_WriteMem(4 bytes @ 0xE000EDF0) -- CPU is running -- CPU_WriteMem(4 bytes @ 0xE000EDFC) -- CPU is running -- CPU_WriteMem(4 bytes @ 0xE000ED0C) -- CPU is running -- CPU_ReadMem(4 bytes @ 0xE000EDF0) -- CPU is running -- CPU_ReadMem(4 bytes @ 0xE000EDF0) -- CPU is running -- CPU_WriteMem(4 bytes @ 0xE000EDF0) -- CPU is running -- CPU_WriteMem(4 bytes @ 0xE000EDFC) -- CPU is running -- CPU_ReadMem(4 bytes @ 0xE000EDF0) >0x80 JTAG> >0x40 JTAG> >0x30 JTAG>
 >0x40 JTAG> >0x50 JTAG> >0x40 JTAG> -- CPU_WriteMem(4 bytes @ 0xE000EDFC) -- CPU_WriteMem(4 bytes @ 0xE0001028) -- CPU_WriteMem(4 bytes @ 0xE0001038) -- CPU_WriteMem(4 bytes @ 0xE0001048) -- CPU_WriteMem(4 bytes @ 0xE0001058) -- CPU_WriteMem(4 bytes @ 0xE0002000) -- CPU_ReadMem(4 bytes @ 0xE000EDFC) -- CPU_ReadMem(4 bytes @ 0xE0001000) (0034ms, 0652ms total)
T3850 000:673 JLINK_ReadReg(R15 (PC))  returns 0x08000144 (0000ms, 0652ms total)
T3850 000:673 JLINK_ReadReg(XPSR)  returns 0x01000000 (0000ms, 0652ms total)
T3850 000:673 JLINK_Halt()  returns 0x00 (0000ms, 0652ms total)
T3850 000:673 JLINK_IsHalted()  returns TRUE (0001ms, 0653ms total)
T3850 000:674 JLINK_ReadMemU32(0xE000EDF0, 0x0001 Items, ...) -- CPU_ReadMem(4 bytes @ 0xE000EDF0) - Data: 03 00 03 00  returns 0x01 (0000ms, 0652ms total)
T3850 000:674 JLINK_WriteU32(0xE000EDF0, 0xA05F0003) -- CPU_WriteMem(4 bytes @ 0xE000EDF0)  returns 0x00 (0001ms, 0653ms total)
T3850 000:675 JLINK_WriteU32(0xE000EDFC, 0x01000000) -- CPU_WriteMem(4 bytes @ 0xE000EDFC)  returns 0x00 (0001ms, 0654ms total)
T3850 000:676 JLINK_GetHWStatus(...)  returns 0x00 (0001ms, 0655ms total)
T3850 000:677 JLINK_GetNumBPUnits(Type = 0xFFFFFF00)  returns 0x06 (0000ms, 0655ms total)
T3850 000:677 JLINK_GetNumBPUnits(Type = 0xF0)  returns 0x2000 (0000ms, 0655ms total)
T3850 000:677 JLINK_GetNumWPUnits()  returns 0x04 (0000ms, 0655ms total)
T3850 000:678 JLINK_GetSpeed()  returns 0x2EE0 (0000ms, 0655ms total)
T3850 000:679 JLINK_ReadMemU32(0xE000E004, 0x0001 Items, ...) -- CPU_ReadMem(4 bytes @ 0xE000E004) - Data: 01 00 00 00  returns 0x01 (0001ms, 0656ms total)
T3850 000:680 JLINK_ReadMemU32(0xE000E004, 0x0001 Items, ...) -- CPU_ReadMem(4 bytes @ 0xE000E004) - Data: 01 00 00 00  returns 0x01 (0001ms, 0657ms total)
T3850 000:681 JLINK_WriteMem(0xE0001000, 0x001C Bytes, ...) - Data: 01 00 00 00 00 00 00 00 00 00 00 00 00 00 00 00 ... -- CPU_WriteMem(28 bytes @ 0xE0001000)  returns 0x1C (0001ms, 0658ms total)
T3850 000:682 JLINK_ReadMem (0xE0001000, 0x001C Bytes, ...) -- CPU_ReadMem(28 bytes @ 0xE0001000) - Data: 01 00 00 40 00 00 00 00 00 00 00 00 00 00 00 00 ...  returns 0x00 (0001ms, 0659ms total)
T3850 000:683 JLINK_ReadReg(R15 (PC))  returns 0x08000144 (0000ms, 0659ms total)
T3850 000:683 JLINK_ReadReg(XPSR)  returns 0x01000000 (0000ms, 0659ms total)
T3850 000:748 JLINK_SetResetType(JLINKARM_RESET_TYPE_NORMAL)  returns JLINKARM_RESET_TYPE_NORMAL (0000ms, 0659ms total)
T3850 000:748 JLINK_Reset() -- CPU_WriteMem(4 bytes @ 0xE000EDF0) -- CPU_WriteMem(4 bytes @ 0xE000EDFC) -- CPU_WriteMem(4 bytes @ 0xE000ED0C) -- CPU_ReadMem(4 bytes @ 0xE000EDF0) -- CPU_ReadMem(4 bytes @ 0xE000EDF0) -- CPU_WriteMem(4 bytes @ 0xE000EDF0) -- CPU_WriteMem(4 bytes @ 0xE000EDFC) -- CPU is running -- CPU_ReadMem(4 bytes @ 0xE000EDF0) >0x80 JTAG> >0x40 JTAG> >0x30 JTAG> >0x40 JTAG> >0x50 JTAG> >0x40 JTAG> -- CPU_WriteMem(4 bytes @ 0xE000EDFC) -- CPU_WriteMem(4 bytes @ 0xE0001028)
 -- CPU_WriteMem(4 bytes @ 0xE0001038) -- CPU_WriteMem(4 bytes @ 0xE0001048) -- CPU_WriteMem(4 bytes @ 0xE0001058) -- CPU_WriteMem(4 bytes @ 0xE0002000) -- CPU_ReadMem(4 bytes @ 0xE000EDFC) -- CPU_ReadMem(4 bytes @ 0xE0001000) (0035ms, 0694ms total)
T3850 000:783 JLINK_ReadReg(R15 (PC))  returns 0x08000144 (0000ms, 0694ms total)
T3850 000:783 JLINK_ReadReg(XPSR)  returns 0x01000000 (0000ms, 0694ms total)
T3850 000:783 JLINK_ReadMem (0x08000144, 0x003C Bytes, ...) -- CPU_ReadMem(64 bytes @ 0x08000140) -- Updating C cache (64 bytes @ 0x08000140) -- Read from C cache (60 bytes @ 0x08000144) - Data: 06 48 80 47 06 48 00 47 FE E7 FE E7 FE E7 FE E7 ...  returns 0x00 (0001ms, 0695ms total)
T3850 001:583 JLINK_ReadMem (0x00000000, 0x0110 Bytes, ...) -- CPU_ReadMem(4 bytes @ 0x00000004) -- CPU_ReadMem(320 bytes @ 0x08000000) -- Updating C cache (320 bytes @ 0x08000000) -- Read from C cache (272 bytes @ 0x08000000) - Data: 18 04 00 20 45 01 00 08 A1 02 00 08 9D 02 00 08 ...  returns 0x00 (0004ms, 0699ms total)
T3850 001:614 JLINK_ReadMem (0x08008000, 0x0110 Bytes, ...) -- CPU_ReadMem(320 bytes @ 0x08008000) -- Updating C cache (320 bytes @ 0x08008000) -- Read from C cache (272 bytes @ 0x08008000) - Data: CD AB 10 32 CD AB 10 32 CD AB 10 32 CD AB 10 32 ...  returns 0x00 (0002ms, 0701ms total)
T3A8C 002:023 JLINK_SetBPEx(Addr = 0x080003C4, Type = 0xFFFFFFF2)  returns 0x00000001 (0000ms, 0701ms total)
T3A8C 002:023 JLINK_SetBPEx(Addr = 0x0800040E, Type = 0xFFFFFFF2)  returns 0x00000002 (0000ms, 0701ms total)
T3A8C 002:023 JLINK_Go() -- CPU_WriteMem(4 bytes @ 0xE0002008) -- CPU_WriteMem(4 bytes @ 0xE000200C) -- CPU_WriteMem(4 bytes @ 0xE0002010) -- CPU_WriteMem(4 bytes @ 0xE0002014) -- CPU_WriteMem(4 bytes @ 0xE0002018) -- CPU_WriteMem(4 bytes @ 0xE000201C) -- CPU_WriteMem(4 bytes @ 0xE0001004) (0005ms, 0706ms total)
T3A8C 002:128 JLINK_IsHalted()  returns TRUE (0003ms, 0709ms total)
T3A8C 002:131 JLINK_Halt()  returns 0x00 (0000ms, 0706ms total)
T3A8C 002:131 JLINK_IsHalted()  returns TRUE (0000ms, 0706ms total)
T3A8C 002:131 JLINK_IsHalted()  returns TRUE (0000ms, 0706ms total)
T3A8C 002:131 JLINK_IsHalted()  returns TRUE (0000ms, 0706ms total)
T3A8C 002:131 JLINK_ReadReg(R15 (PC))  returns 0x080003C4 (0000ms, 0706ms total)
T3A8C 002:131 JLINK_ReadReg(XPSR)  returns 0x61000000 (0000ms, 0706ms total)
T3A8C 002:131 JLINK_ClrBPEx(BPHandle = 0x00000001)  returns 0x00 (0000ms, 0706ms total)
T3A8C 002:131 JLINK_ClrBPEx(BPHandle = 0x00000002)  returns 0x00 (0000ms, 0706ms total)
T3A8C 002:131 JLINK_ReadMemU32(0xE000ED30, 0x0001 Items, ...) -- CPU_ReadMem(4 bytes @ 0xE000ED30) - Data: 03 00 00 00  returns 0x01 (0001ms, 0707ms total)
T3A8C 002:132 JLINK_ReadMemU32(0xE0001028, 0x0001 Items, ...) -- CPU_ReadMem(4 bytes @ 0xE0001028) - Data: 00 00 00 00  returns 0x01 (0001ms, 0708ms total)
T3A8C 002:133 JLINK_ReadMemU32(0xE0001038, 0x0001 Items, ...) -- CPU_ReadMem(4 bytes @ 0xE0001038) - Data: 00 02 00 00  returns 0x01 (0001ms, 0709ms total)
T3A8C 002:134 JLINK_ReadMemU32(0xE0001048, 0x0001 Items, ...) -- CPU_ReadMem(4 bytes @ 0xE0001048) - Data: 00 00 00 00  returns 0x01 (0001ms, 0710ms total)
T3A8C 002:135 JLINK_ReadMemU32(0xE0001058, 0x0001 Items, ...) -- CPU_ReadMem(4 bytes @ 0xE0001058) - Data: 00 00 00 00  returns 0x01 (0001ms, 0711ms total)
T3A8C 002:136 JLINK_ReadReg(R0)  returns 0x080003C5 (0000ms, 0711ms total)
T3A8C 002:136 JLINK_ReadReg(R1)  returns 0x20000418 (0000ms, 0711ms total)
T3A8C 002:136 JLINK_ReadReg(R2)  returns 0x00000000 (0001ms, 0712ms total)
T3A8C 002:137 JLINK_ReadReg(R3)  returns 0x080003B7 (0000ms, 0712ms total)
T3A8C 002:137 JLINK_ReadReg(R4)  returns 0x08000470 (0000ms, 0712ms total)
T3A8C 002:137 JLINK_ReadReg(R5)  returns 0x08000470 (0000ms, 0712ms total)
T3A8C 002:137 JLINK_ReadReg(R6)  returns 0x0800C000 (0000ms, 0712ms total)
T3A8C 002:137 JLINK_ReadReg(R7)  returns 0x00000000 (0000ms, 0712ms total)
T3A8C 002:137 JLINK_ReadReg(R8)  returns 0xFFFEDFDD (0000ms, 0712ms total)
T3A8C 002:137 JLINK_ReadReg(R9)  returns 0xFF765FFD (0000ms, 0712ms total)
T3A8C 002:137 JLINK_ReadReg(R10)  returns 0x9D65B81A (0000ms, 0712ms total)
T3A8C 002:137 JLINK_ReadReg(R11)  returns 0x8C8A3D42 (0000ms, 0712ms total)
T3A8C 002:137 JLINK_ReadReg(R12)  returns 0xFBFFEE7F (0000ms, 0712ms total)
T3A8C 002:137 JLINK_ReadReg(R13 (SP))  returns 0x20000418 (0000ms, 0712ms total)
T3A8C 002:137 JLINK_ReadReg(R14)  returns 0x08000185 (0000ms, 0712ms total)
T3A8C 002:137 JLINK_ReadReg(R15 (PC))  returns 0x080003C4 (0000ms, 0712ms total)
T3A8C 002:137 JLINK_ReadReg(XPSR)  returns 0x61000000 (0000ms, 0712ms total)
T3A8C 002:137 JLINK_ReadReg(MSP)  returns 0x20000418 (0000ms, 0712ms total)
T3A8C 002:137 JLINK_ReadReg(PSP)  returns 0x344517F8 (0000ms, 0712ms total)
T3A8C 002:137 JLINK_ReadReg(CFBP)  returns 0x00000000 (0000ms, 0712ms total)
T3850 002:137 JLINK_ReadMem (0x08008000, 0x0110 Bytes, ...) -- CPU_ReadMem(320 bytes @ 0x08008000) -- Updating C cache (320 bytes @ 0x08008000) -- Read from C cache (272 bytes @ 0x08008000) - Data: CD AB 10 32 CD AB 10 32 CD AB 10 32 CD AB 10 32 ...  returns 0x00 (0002ms, 0714ms total)
T3850 002:142 JLINK_ReadMem (0x080003C4, 0x003C Bytes, ...) -- CPU_ReadMem(64 bytes @ 0x080003C0) -- Updating C cache (64 bytes @ 0x080003C0) -- Read from C cache (60 bytes @ 0x080003C4) - Data: FF F7 4C FF 1E 4C 08 20 20 61 34 20 FF F7 DE FE ...  returns 0x00 (0001ms, 0715ms total)
T3850 010:750 JLINK_ReadMem (0x1C477846, 0x0110 Bytes, ...) -- CPU_ReadMem(272 bytes @ 0x1C477846) - Data: AA AA AA AA AA AA AA AA AA AA AA AA AA AA AA AA ...  returns 0x01 (0005ms, 0720ms total)
T3850 014:407 JLINK_ReadMem (0x1C477824, 0x0110 Bytes, ...) -- CPU_ReadMem(272 bytes @ 0x1C477824) - Data: AA AA AA AA AA AA AA AA AA AA AA AA AA AA AA AA ...  returns 0x01 (0004ms, 0724ms total)
T3850 014:678 JLINK_ReadMem (0x1C477802, 0x0110 Bytes, ...) -- CPU_ReadMem(272 bytes @ 0x1C477802) - Data: AA AA AA AA AA AA AA AA AA AA AA AA AA AA AA AA ...  returns 0x01 (0003ms, 0727ms total)
T3850 014:911 JLINK_ReadMem (0x1C4777E0, 0x0020 Bytes, ...) -- CPU_ReadMem(32 bytes @ 0x1C4777E0) - Data: AA AA AA AA AA AA AA AA AA AA AA AA AA AA AA AA ...  returns 0x01 (0002ms, 0729ms total)
T3850 014:913 JLINK_ReadMem (0x1C477800, 0x00F0 Bytes, ...) -- CPU_ReadMem(240 bytes @ 0x1C477800) - Data: AA AA AA AA AA AA AA AA AA AA AA AA AA AA AA AA ...  returns 0x01 (0004ms, 0733ms total)
T3850 015:127 JLINK_ReadMem (0x1C4777BE, 0x0042 Bytes, ...) -- CPU_ReadMem(66 bytes @ 0x1C4777BE) - Data: AA AA AA AA AA AA AA AA AA AA AA AA AA AA AA AA ...  returns 0x01 (0002ms, 0735ms total)
T3850 015:129 JLINK_ReadMem (0x1C477800, 0x00CE Bytes, ...) -- CPU_ReadMem(206 bytes @ 0x1C477800) - Data: AA AA AA AA AA AA AA AA AA AA AA AA AA AA AA AA ...  returns 0x01 (0003ms, 0738ms total)
T3850 015:326 JLINK_ReadMem (0x1C47779C, 0x0064 Bytes, ...) -- CPU_ReadMem(100 bytes @ 0x1C47779C) - Data: AA AA AA AA AA AA AA AA AA AA AA AA AA AA AA AA ...  returns 0x01 (0002ms, 0741ms total)
T3850 015:328 JLINK_ReadMem (0x1C477800, 0x00AC Bytes, ...) -- CPU_ReadMem(172 bytes @ 0x1C477800) - Data: AA AA AA AA AA AA AA AA AA AA AA AA AA AA AA AA ...  returns 0x01 (0003ms, 0744ms total)
T3850 015:526 JLINK_ReadMem (0x1C47777A, 0x0086 Bytes, ...) -- CPU_ReadMem(134 bytes @ 0x1C47777A) - Data: AA AA AA AA AA AA AA AA AA AA AA AA AA AA AA AA ...  returns 0x01 (0003ms, 0747ms total)
T3850 015:529 JLINK_ReadMem (0x1C477800, 0x008A Bytes, ...) -- CPU_ReadMem(138 bytes @ 0x1C477800) - Data: AA AA AA AA AA AA AA AA AA AA AA AA AA AA AA AA ...  returns 0x01 (0003ms, 0750ms total)
T3850 015:726 JLINK_ReadMem (0x1C477758, 0x00A8 Bytes, ...) -- CPU_ReadMem(168 bytes @ 0x1C477758) - Data: AA AA AA AA AA AA AA AA AA AA AA AA AA AA AA AA ...  returns 0x01 (0003ms, 0753ms total)
T3850 015:729 JLINK_ReadMem (0x1C477800, 0x0068 Bytes, ...) -- CPU_ReadMem(104 bytes @ 0x1C477800) - Data: AA AA AA AA AA AA AA AA AA AA AA AA AA AA AA AA ...  returns 0x01 (0001ms, 0754ms total)
T3850 015:926 JLINK_ReadMem (0x1C477736, 0x00CA Bytes, ...) -- CPU_ReadMem(202 bytes @ 0x1C477736) - Data: AA AA AA AA AA AA AA AA AA AA AA AA AA AA AA AA ...  returns 0x01 (0003ms, 0757ms total)
T3850 015:929 JLINK_ReadMem (0x1C477800, 0x0046 Bytes, ...) -- CPU_ReadMem(70 bytes @ 0x1C477800) - Data: AA AA AA AA AA AA AA AA AA AA AA AA AA AA AA AA ...  returns 0x01 (0002ms, 0759ms total)
T3850 016:135 JLINK_ReadMem (0x1C477714, 0x00EC Bytes, ...) -- CPU_ReadMem(236 bytes @ 0x1C477714) - Data: AA AA AA AA AA AA AA AA AA AA AA AA AA AA AA AA ...  returns 0x01 (0003ms, 0762ms total)
T3850 016:138 JLINK_ReadMem (0x1C477800, 0x0024 Bytes, ...) -- CPU_ReadMem(36 bytes @ 0x1C477800) - Data: AA AA AA AA AA AA AA AA AA AA AA AA AA AA AA AA ...  returns 0x01 (0002ms, 0764ms total)
T3850 016:345 JLINK_ReadMem (0x1C4776F2, 0x010E Bytes, ...) -- CPU_ReadMem(270 bytes @ 0x1C4776F2) - Data: AA AA AA AA AA AA AA AA AA AA AA AA AA AA AA AA ...  returns 0x01 (0003ms, 0767ms total)
T3850 016:348 JLINK_ReadMem (0x1C477800, 0x0002 Bytes, ...) -- CPU_ReadMem(2 bytes @ 0x1C477800) - Data: AA AA  returns 0x01 (0002ms, 0769ms total)
T3850 016:567 JLINK_ReadMem (0x1C4776D0, 0x0110 Bytes, ...) -- CPU_ReadMem(272 bytes @ 0x1C4776D0) - Data: AA AA AA AA AA AA AA AA AA AA AA AA AA AA AA AA ...  returns 0x01 (0004ms, 0773ms total)
T3850 025:974 JLINK_ReadMem (0x08008022, 0x0110 Bytes, ...) -- Read from C cache (272 bytes @ 0x08008022) - Data: 10 32 CD AB 10 32 CD AB 10 32 CD AB 10 32 CD AB ...  returns 0x00 (0001ms, 0774ms total)
T3850 026:350 JLINK_ReadMem (0x08008044, 0x0110 Bytes, ...) -- CPU_ReadMem(64 bytes @ 0x08008140) -- Updating C cache (64 bytes @ 0x08008140) -- Read from C cache (272 bytes @ 0x08008044) - Data: CD AB 10 32 CD AB 10 32 CD AB 10 32 CD AB 10 32 ...  returns 0x00 (0002ms, 0776ms total)
T3850 026:624 JLINK_ReadMem (0x08008066, 0x0110 Bytes, ...) -- Read from C cache (272 bytes @ 0x08008066) - Data: 10 32 CD AB 10 32 CD AB 10 32 CD AB 10 32 CD AB ...  returns 0x00 (0000ms, 0776ms total)
T3850 026:895 JLINK_ReadMem (0x08008088, 0x0110 Bytes, ...) -- CPU_ReadMem(64 bytes @ 0x08008180) -- Updating C cache (64 bytes @ 0x08008180) -- Read from C cache (272 bytes @ 0x08008088) - Data: CD AB 10 32 CD AB 10 32 CD AB 10 32 CD AB 10 32 ...  returns 0x00 (0002ms, 0778ms total)
T3850 027:088 JLINK_ReadMem (0x080080AA, 0x0110 Bytes, ...) -- Read from C cache (272 bytes @ 0x080080AA) - Data: 10 32 CD AB 10 32 CD AB 10 32 CD AB 10 32 CD AB ...  returns 0x00 (0002ms, 0780ms total)
T3850 027:310 JLINK_ReadMem (0x080080CC, 0x0110 Bytes, ...) -- CPU_ReadMem(64 bytes @ 0x080081C0) -- Updating C cache (64 bytes @ 0x080081C0) -- Read from C cache (272 bytes @ 0x080080CC) - Data: CD AB 10 32 CD AB 10 32 CD AB 10 32 CD AB 10 32 ...  returns 0x00 (0001ms, 0781ms total)
T3850 027:518 JLINK_ReadMem (0x080080EE, 0x0110 Bytes, ...) -- Read from C cache (272 bytes @ 0x080080EE) - Data: 10 32 CD AB 10 32 CD AB 10 32 CD AB 10 32 CD AB ...  returns 0x00 (0000ms, 0781ms total)
T3850 027:726 JLINK_ReadMem (0x08008110, 0x0110 Bytes, ...) -- CPU_ReadMem(64 bytes @ 0x08008200) -- Updating C cache (64 bytes @ 0x08008200) -- Read from C cache (272 bytes @ 0x08008110) - Data: CD AB 10 32 CD AB 10 32 CD AB 10 32 CD AB 10 32 ...  returns 0x00 (0002ms, 0783ms total)
T3850 027:958 JLINK_ReadMem (0x08008132, 0x0110 Bytes, ...) -- CPU_ReadMem(64 bytes @ 0x08008240) -- Updating C cache (64 bytes @ 0x08008240) -- Read from C cache (272 bytes @ 0x08008132) - Data: 10 32 CD AB 10 32 CD AB 10 32 CD AB 10 32 CD AB ...  returns 0x00 (0002ms, 0785ms total)
T3850 028:174 JLINK_ReadMem (0x08008154, 0x0110 Bytes, ...) -- Read from C cache (272 bytes @ 0x08008154) - Data: CD AB 10 32 CD AB 10 32 CD AB 10 32 CD AB 10 32 ...  returns 0x00 (0001ms, 0786ms total)
T3850 028:614 JLINK_ReadMem (0x08008176, 0x0110 Bytes, ...) -- CPU_ReadMem(64 bytes @ 0x08008280) -- Updating C cache (64 bytes @ 0x08008280) -- Read from C cache (272 bytes @ 0x08008176) - Data: 10 32 CD AB 10 32 CD AB 10 32 CD AB 10 32 CD AB ...  returns 0x00 (0002ms, 0788ms total)
T3A8C 240:033 JLINK_SetBPEx(Addr = 0x080003C8, Type = 0xFFFFFFF2)  returns 0x00000003 (0001ms, 0789ms total)
T3A8C 240:034 JLINK_SetBPEx(Addr = 0x0800040E, Type = 0xFFFFFFF2)  returns 0x00000004 (0000ms, 0789ms total)
T3A8C 240:034 JLINK_Go() -- CPU_WriteMem(4 bytes @ 0xE0002008) (0003ms, 0792ms total)
T3A8C 240:137 JLINK_IsHalted()  returns TRUE (0003ms, 0795ms total)
T3A8C 240:140 JLINK_Halt()  returns 0x00 (0000ms, 0792ms total)
T3A8C 240:140 JLINK_IsHalted()  returns TRUE (0001ms, 0793ms total)
T3A8C 240:141 JLINK_IsHalted()  returns TRUE (0000ms, 0792ms total)
T3A8C 240:141 JLINK_IsHalted()  returns TRUE (0000ms, 0792ms total)
T3A8C 240:141 JLINK_ReadReg(R15 (PC))  returns 0x080003C8 (0000ms, 0792ms total)
T3A8C 240:141 JLINK_ReadReg(XPSR)  returns 0x61000000 (0000ms, 0792ms total)
T3A8C 240:141 JLINK_ClrBPEx(BPHandle = 0x00000003)  returns 0x00 (0000ms, 0792ms total)
T3A8C 240:141 JLINK_ClrBPEx(BPHandle = 0x00000004)  returns 0x00 (0000ms, 0792ms total)
T3A8C 240:141 JLINK_ReadMemU32(0xE000ED30, 0x0001 Items, ...) -- CPU_ReadMem(4 bytes @ 0xE000ED30) - Data: 03 00 00 00  returns 0x01 (0001ms, 0793ms total)
T3A8C 240:142 JLINK_ReadMemU32(0xE0001028, 0x0001 Items, ...) -- CPU_ReadMem(4 bytes @ 0xE0001028) - Data: 00 00 00 00  returns 0x01 (0001ms, 0794ms total)
T3A8C 240:143 JLINK_ReadMemU32(0xE0001038, 0x0001 Items, ...) -- CPU_ReadMem(4 bytes @ 0xE0001038) - Data: 00 02 00 00  returns 0x01 (0001ms, 0795ms total)
T3A8C 240:144 JLINK_ReadMemU32(0xE0001048, 0x0001 Items, ...) -- CPU_ReadMem(4 bytes @ 0xE0001048) - Data: 00 00 00 00  returns 0x01 (0001ms, 0796ms total)
T3A8C 240:145 JLINK_ReadMemU32(0xE0001058, 0x0001 Items, ...) -- CPU_ReadMem(4 bytes @ 0xE0001058) - Data: 00 00 00 00  returns 0x01 (0001ms, 0797ms total)
T3A8C 240:146 JLINK_ReadReg(R0)  returns 0x40022000 (0000ms, 0797ms total)
T3A8C 240:146 JLINK_ReadReg(R1)  returns 0xCDEF89AB (0000ms, 0797ms total)
T3A8C 240:146 JLINK_ReadReg(R2)  returns 0x00000000 (0000ms, 0797ms total)
T3A8C 240:146 JLINK_ReadReg(R3)  returns 0x080003B7 (0000ms, 0797ms total)
T3A8C 240:146 JLINK_ReadReg(R4)  returns 0x08000470 (0000ms, 0797ms total)
T3A8C 240:146 JLINK_ReadReg(R5)  returns 0x08000470 (0000ms, 0797ms total)
T3A8C 240:146 JLINK_ReadReg(R6)  returns 0x0800C000 (0000ms, 0797ms total)
T3A8C 240:146 JLINK_ReadReg(R7)  returns 0x00000000 (0000ms, 0797ms total)
T3A8C 240:146 JLINK_ReadReg(R8)  returns 0xFFFEDFDD (0000ms, 0797ms total)
T3A8C 240:146 JLINK_ReadReg(R9)  returns 0xFF765FFD (0000ms, 0797ms total)
T3A8C 240:146 JLINK_ReadReg(R10)  returns 0x9D65B81A (0000ms, 0797ms total)
T3A8C 240:146 JLINK_ReadReg(R11)  returns 0x8C8A3D42 (0000ms, 0797ms total)
T3A8C 240:146 JLINK_ReadReg(R12)  returns 0xFBFFEE7F (0000ms, 0797ms total)
T3A8C 240:146 JLINK_ReadReg(R13 (SP))  returns 0x20000418 (0000ms, 0797ms total)
T3A8C 240:146 JLINK_ReadReg(R14)  returns 0x080003C9 (0000ms, 0797ms total)
T3A8C 240:146 JLINK_ReadReg(R15 (PC))  returns 0x080003C8 (0000ms, 0797ms total)
T3A8C 240:146 JLINK_ReadReg(XPSR)  returns 0x61000000 (0000ms, 0797ms total)
T3A8C 240:146 JLINK_ReadReg(MSP)  returns 0x20000418 (0000ms, 0797ms total)
T3A8C 240:146 JLINK_ReadReg(PSP)  returns 0x344517F8 (0000ms, 0797ms total)
T3A8C 240:146 JLINK_ReadReg(CFBP)  returns 0x00000000 (0000ms, 0797ms total)
T3850 240:147 JLINK_ReadMem (0x08008000, 0x0110 Bytes, ...) -- CPU_ReadMem(320 bytes @ 0x08008000) -- Updating C cache (320 bytes @ 0x08008000) -- Read from C cache (272 bytes @ 0x08008000) - Data: CD AB 10 32 CD AB 10 32 CD AB 10 32 CD AB 10 32 ...  returns 0x00 (0002ms, 0799ms total)
T3850 240:153 JLINK_ReadMem (0x080003C8, 0x0038 Bytes, ...) -- CPU_ReadMem(64 bytes @ 0x080003C0) -- Updating C cache (64 bytes @ 0x080003C0) -- Read from C cache (56 bytes @ 0x080003C8) - Data: 1E 4C 08 20 20 61 34 20 FF F7 DE FE 00 27 1C 4D ...  returns 0x00 (0002ms, 0801ms total)
T3850 240:155 JLINK_ReadMem (0x08000400, 0x0004 Bytes, ...) -- CPU_ReadMem(64 bytes @ 0x08000400) -- Updating C cache (64 bytes @ 0x08000400) -- Read from C cache (4 bytes @ 0x08000400) - Data: 0A E0 00 BF  returns 0x00 (0001ms, 0802ms total)
T3A8C 240:912 JLINK_Step() -- Read from C cache (2 bytes @ 0x080003C8) -- CPU_ReadMem(4 bytes @ 0xE0001004) -- CPU_ReadMem(64 bytes @ 0x08000440) -- Updating C cache (64 bytes @ 0x08000440) -- Read from C cache (4 bytes @ 0x08000444) -- Simulated  returns 0x00 (0003ms, 0805ms total)
T3A8C 240:915 JLINK_ReadReg(R15 (PC))  returns 0x080003CA (0000ms, 0805ms total)
T3A8C 240:915 JLINK_ReadReg(XPSR)  returns 0x61000000 (0000ms, 0805ms total)
T3A8C 240:915 JLINK_Step() -- Read from C cache (2 bytes @ 0x080003CA) -- Simulated  returns 0x00 (0000ms, 0805ms total)
T3A8C 240:915 JLINK_ReadReg(R15 (PC))  returns 0x080003CC (0000ms, 0805ms total)
T3A8C 240:915 JLINK_ReadReg(XPSR)  returns 0x21000000 (0000ms, 0805ms total)
T3A8C 240:915 JLINK_ReadReg(R0)  returns 0x00000008 (0000ms, 0805ms total)
T3A8C 240:915 JLINK_ReadReg(R1)  returns 0xCDEF89AB (0000ms, 0805ms total)
T3A8C 240:915 JLINK_ReadReg(R2)  returns 0x00000000 (0000ms, 0805ms total)
T3A8C 240:915 JLINK_ReadReg(R3)  returns 0x080003B7 (0000ms, 0805ms total)
T3A8C 240:915 JLINK_ReadReg(R4)  returns 0x20000000 (0000ms, 0805ms total)
T3A8C 240:915 JLINK_ReadReg(R5)  returns 0x08000470 (0000ms, 0805ms total)
T3A8C 240:915 JLINK_ReadReg(R6)  returns 0x0800C000 (0000ms, 0805ms total)
T3A8C 240:915 JLINK_ReadReg(R7)  returns 0x00000000 (0000ms, 0805ms total)
T3A8C 240:915 JLINK_ReadReg(R8)  returns 0xFFFEDFDD (0000ms, 0805ms total)
T3A8C 240:915 JLINK_ReadReg(R9)  returns 0xFF765FFD (0000ms, 0805ms total)
T3A8C 240:915 JLINK_ReadReg(R10)  returns 0x9D65B81A (0000ms, 0805ms total)
T3A8C 240:915 JLINK_ReadReg(R11)  returns 0x8C8A3D42 (0000ms, 0805ms total)
T3A8C 240:915 JLINK_ReadReg(R12)  returns 0xFBFFEE7F (0000ms, 0805ms total)
T3A8C 240:915 JLINK_ReadReg(R13 (SP))  returns 0x20000418 (0000ms, 0805ms total)
T3A8C 240:915 JLINK_ReadReg(R14)  returns 0x080003C9 (0000ms, 0805ms total)
T3A8C 240:915 JLINK_ReadReg(R15 (PC))  returns 0x080003CC (0000ms, 0805ms total)
T3A8C 240:915 JLINK_ReadReg(XPSR)  returns 0x21000000 (0000ms, 0805ms total)
T3A8C 240:915 JLINK_ReadReg(MSP)  returns 0x20000418 (0000ms, 0805ms total)
T3A8C 240:915 JLINK_ReadReg(PSP)  returns 0x344517F8 (0000ms, 0805ms total)
T3A8C 240:915 JLINK_ReadReg(CFBP)  returns 0x00000000 (0000ms, 0805ms total)
T3850 240:918 JLINK_ReadMem (0x08008000, 0x0110 Bytes, ...) -- Read from C cache (272 bytes @ 0x08008000) - Data: CD AB 10 32 CD AB 10 32 CD AB 10 32 CD AB 10 32 ...  returns 0x00 (0000ms, 0805ms total)
T3850 240:921 JLINK_ReadMem (0x080003CC, 0x0034 Bytes, ...) -- Read from C cache (52 bytes @ 0x080003CC) - Data: 20 61 34 20 FF F7 DE FE 00 27 1C 4D 38 46 67 60 ...  returns 0x00 (0000ms, 0805ms total)
T3850 240:921 JLINK_ReadMem (0x08000400, 0x0008 Bytes, ...) -- Read from C cache (8 bytes @ 0x08000400) - Data: 0A E0 00 BF D4 E9 02 01  returns 0x00 (0000ms, 0805ms total)
T3A8C 242:767 JLINK_Step() -- Read from C cache (2 bytes @ 0x080003CC) -- CPU_WriteMem(4 bytes @ 0x20000010) -- Simulated  returns 0x00 (0003ms, 0808ms total)
T3A8C 242:770 JLINK_ReadReg(R15 (PC))  returns 0x080003CE (0000ms, 0808ms total)
T3A8C 242:770 JLINK_ReadReg(XPSR)  returns 0x21000000 (0000ms, 0808ms total)
T3A8C 242:770 JLINK_Step() -- Read from C cache (2 bytes @ 0x080003CE) -- Simulated  returns 0x00 (0000ms, 0808ms total)
T3A8C 242:770 JLINK_ReadReg(R15 (PC))  returns 0x080003D0 (0000ms, 0808ms total)
T3A8C 242:770 JLINK_ReadReg(XPSR)  returns 0x21000000 (0000ms, 0808ms total)
T3A8C 242:770 JLINK_SetBPEx(Addr = 0x080003D4, Type = 0xFFFFFFF2)  returns 0x00000005 (0000ms, 0808ms total)
T3A8C 242:770 JLINK_SetBPEx(Addr = 0x0800040E, Type = 0xFFFFFFF2)  returns 0x00000006 (0000ms, 0808ms total)
T3A8C 242:770 JLINK_Go() -- CPU_WriteMem(4 bytes @ 0xE0002008) -- CPU_WriteMem(4 bytes @ 0xE0001004) (0005ms, 0813ms total)
T3A8C 242:875 JLINK_IsHalted()  returns TRUE (0003ms, 0816ms total)
T3A8C 242:878 JLINK_Halt()  returns 0x00 (0000ms, 0813ms total)
T3A8C 242:878 JLINK_IsHalted()  returns TRUE (0000ms, 0813ms total)
T3A8C 242:878 JLINK_IsHalted()  returns TRUE (0000ms, 0813ms total)
T3A8C 242:878 JLINK_IsHalted()  returns TRUE (0000ms, 0813ms total)
T3A8C 242:878 JLINK_ReadReg(R15 (PC))  returns 0x080003D4 (0000ms, 0813ms total)
T3A8C 242:878 JLINK_ReadReg(XPSR)  returns 0x21000000 (0000ms, 0813ms total)
T3A8C 242:878 JLINK_ClrBPEx(BPHandle = 0x00000005)  returns 0x00 (0000ms, 0813ms total)
T3A8C 242:878 JLINK_ClrBPEx(BPHandle = 0x00000006)  returns 0x00 (0000ms, 0813ms total)
T3A8C 242:878 JLINK_ReadMemU32(0xE000ED30, 0x0001 Items, ...) -- CPU_ReadMem(4 bytes @ 0xE000ED30) - Data: 03 00 00 00  returns 0x01 (0001ms, 0814ms total)
T3A8C 242:879 JLINK_ReadMemU32(0xE0001028, 0x0001 Items, ...) -- CPU_ReadMem(4 bytes @ 0xE0001028) - Data: 00 00 00 00  returns 0x01 (0002ms, 0816ms total)
T3A8C 242:881 JLINK_ReadMemU32(0xE0001038, 0x0001 Items, ...) -- CPU_ReadMem(4 bytes @ 0xE0001038) - Data: 00 02 00 00  returns 0x01 (0001ms, 0817ms total)
T3A8C 242:882 JLINK_ReadMemU32(0xE0001048, 0x0001 Items, ...) -- CPU_ReadMem(4 bytes @ 0xE0001048) - Data: 00 00 00 00  returns 0x01 (0001ms, 0818ms total)
T3A8C 242:883 JLINK_ReadMemU32(0xE0001058, 0x0001 Items, ...) -- CPU_ReadMem(4 bytes @ 0xE0001058) - Data: 00 00 00 00  returns 0x01 (0001ms, 0819ms total)
T3A8C 242:884 JLINK_ReadReg(R0)  returns 0x00000034 (0000ms, 0819ms total)
T3A8C 242:884 JLINK_ReadReg(R1)  returns 0x40022000 (0000ms, 0819ms total)
T3A8C 242:884 JLINK_ReadReg(R2)  returns 0x00000000 (0000ms, 0819ms total)
T3A8C 242:884 JLINK_ReadReg(R3)  returns 0x080003B7 (0000ms, 0819ms total)
T3A8C 242:884 JLINK_ReadReg(R4)  returns 0x20000000 (0000ms, 0819ms total)
T3A8C 242:884 JLINK_ReadReg(R5)  returns 0x08000470 (0000ms, 0819ms total)
T3A8C 242:884 JLINK_ReadReg(R6)  returns 0x0800C000 (0000ms, 0819ms total)
T3A8C 242:884 JLINK_ReadReg(R7)  returns 0x00000000 (0000ms, 0819ms total)
T3A8C 242:884 JLINK_ReadReg(R8)  returns 0xFFFEDFDD (0000ms, 0819ms total)
T3A8C 242:884 JLINK_ReadReg(R9)  returns 0xFF765FFD (0000ms, 0819ms total)
T3A8C 242:884 JLINK_ReadReg(R10)  returns 0x9D65B81A (0000ms, 0819ms total)
T3A8C 242:884 JLINK_ReadReg(R11)  returns 0x8C8A3D42 (0000ms, 0819ms total)
T3A8C 242:884 JLINK_ReadReg(R12)  returns 0xFBFFEE7F (0000ms, 0819ms total)
T3A8C 242:884 JLINK_ReadReg(R13 (SP))  returns 0x20000418 (0000ms, 0819ms total)
T3A8C 242:884 JLINK_ReadReg(R14)  returns 0x080003D5 (0000ms, 0819ms total)
T3A8C 242:884 JLINK_ReadReg(R15 (PC))  returns 0x080003D4 (0000ms, 0819ms total)
T3A8C 242:884 JLINK_ReadReg(XPSR)  returns 0x21000000 (0000ms, 0819ms total)
T3A8C 242:884 JLINK_ReadReg(MSP)  returns 0x20000418 (0000ms, 0819ms total)
T3A8C 242:884 JLINK_ReadReg(PSP)  returns 0x344517F8 (0000ms, 0819ms total)
T3A8C 242:884 JLINK_ReadReg(CFBP)  returns 0x00000000 (0000ms, 0819ms total)
T3850 242:886 JLINK_ReadMem (0x08008000, 0x0110 Bytes, ...) -- CPU_ReadMem(320 bytes @ 0x08008000) -- Updating C cache (320 bytes @ 0x08008000) -- Read from C cache (272 bytes @ 0x08008000) - Data: CD AB 10 32 CD AB 10 32 CD AB 10 32 CD AB 10 32 ...  returns 0x00 (0002ms, 0821ms total)
T3850 242:891 JLINK_ReadMem (0x080003D4, 0x002C Bytes, ...) -- CPU_ReadMem(64 bytes @ 0x080003C0) -- Updating C cache (64 bytes @ 0x080003C0) -- Read from C cache (44 bytes @ 0x080003D4) - Data: 00 27 1C 4D 38 46 67 60 08 E0 00 BF 05 EB C0 20 ...  returns 0x00 (0001ms, 0822ms total)
T3850 242:892 JLINK_ReadMem (0x08000400, 0x0010 Bytes, ...) -- CPU_ReadMem(64 bytes @ 0x08000400) -- Updating C cache (64 bytes @ 0x08000400) -- Read from C cache (16 bytes @ 0x08000400) - Data: 0A E0 00 BF D4 E9 02 01 FF F7 02 FF 20 70 A0 68  returns 0x00 (0001ms, 0823ms total)
T3A8C 243:551 JLINK_Step() -- Read from C cache (2 bytes @ 0x080003D4) -- CPU_ReadMem(4 bytes @ 0xE0001004) -- Simulated  returns 0x00 (0002ms, 0825ms total)
T3A8C 243:553 JLINK_ReadReg(R15 (PC))  returns 0x080003D6 (0000ms, 0825ms total)
T3A8C 243:553 JLINK_ReadReg(XPSR)  returns 0x61000000 (0001ms, 0826ms total)
T3A8C 243:554 JLINK_ReadReg(R0)  returns 0x00000034 (0000ms, 0826ms total)
T3A8C 243:554 JLINK_ReadReg(R1)  returns 0x40022000 (0000ms, 0826ms total)
T3A8C 243:554 JLINK_ReadReg(R2)  returns 0x00000000 (0000ms, 0826ms total)
T3A8C 243:554 JLINK_ReadReg(R3)  returns 0x080003B7 (0000ms, 0826ms total)
T3A8C 243:554 JLINK_ReadReg(R4)  returns 0x20000000 (0000ms, 0826ms total)
T3A8C 243:554 JLINK_ReadReg(R5)  returns 0x08000470 (0000ms, 0826ms total)
T3A8C 243:554 JLINK_ReadReg(R6)  returns 0x0800C000 (0000ms, 0826ms total)
T3A8C 243:554 JLINK_ReadReg(R7)  returns 0x00000000 (0000ms, 0826ms total)
T3A8C 243:554 JLINK_ReadReg(R8)  returns 0xFFFEDFDD (0000ms, 0826ms total)
T3A8C 243:554 JLINK_ReadReg(R9)  returns 0xFF765FFD (0000ms, 0826ms total)
T3A8C 243:554 JLINK_ReadReg(R10)  returns 0x9D65B81A (0000ms, 0826ms total)
T3A8C 243:554 JLINK_ReadReg(R11)  returns 0x8C8A3D42 (0000ms, 0826ms total)
T3A8C 243:554 JLINK_ReadReg(R12)  returns 0xFBFFEE7F (0000ms, 0826ms total)
T3A8C 243:554 JLINK_ReadReg(R13 (SP))  returns 0x20000418 (0000ms, 0826ms total)
T3A8C 243:554 JLINK_ReadReg(R14)  returns 0x080003D5 (0000ms, 0826ms total)
T3A8C 243:554 JLINK_ReadReg(R15 (PC))  returns 0x080003D6 (0000ms, 0826ms total)
T3A8C 243:554 JLINK_ReadReg(XPSR)  returns 0x61000000 (0000ms, 0826ms total)
T3A8C 243:554 JLINK_ReadReg(MSP)  returns 0x20000418 (0000ms, 0826ms total)
T3A8C 243:554 JLINK_ReadReg(PSP)  returns 0x344517F8 (0000ms, 0826ms total)
T3A8C 243:554 JLINK_ReadReg(CFBP)  returns 0x00000000 (0000ms, 0826ms total)
T3850 243:558 JLINK_ReadMem (0x08008000, 0x0110 Bytes, ...) -- Read from C cache (272 bytes @ 0x08008000) - Data: CD AB 10 32 CD AB 10 32 CD AB 10 32 CD AB 10 32 ...  returns 0x00 (0000ms, 0826ms total)
T3A8C 246:615 JLINK_ReadMem (0x080003D6, 0x0002 Bytes, ...) -- Read from C cache (2 bytes @ 0x080003D6) - Data: 1C 4D  returns 0x00 (0001ms, 0827ms total)
T3A8C 246:616 JLINK_ReadMem (0x080003D8, 0x0028 Bytes, ...) -- Read from C cache (40 bytes @ 0x080003D8) - Data: 38 46 67 60 08 E0 00 BF 05 EB C0 20 FF F7 DA FE ...  returns 0x00 (0000ms, 0827ms total)
T3A8C 246:616 JLINK_ReadMem (0x08000400, 0x0014 Bytes, ...) -- Read from C cache (20 bytes @ 0x08000400) - Data: 0A E0 00 BF D4 E9 02 01 FF F7 02 FF 20 70 A0 68 ...  returns 0x00 (0000ms, 0827ms total)
T3A8C 246:616 JLINK_Step() -- Read from C cache (2 bytes @ 0x080003D6) -- CPU_ReadMem(64 bytes @ 0x08000440) -- Updating C cache (64 bytes @ 0x08000440) -- Read from C cache (4 bytes @ 0x08000448) -- Simulated  returns 0x00 (0002ms, 0829ms total)
T3A8C 246:618 JLINK_ReadReg(R15 (PC))  returns 0x080003D8 (0000ms, 0829ms total)
T3A8C 246:618 JLINK_ReadReg(XPSR)  returns 0x61000000 (0000ms, 0829ms total)
T3A8C 246:618 JLINK_Step() -- Read from C cache (2 bytes @ 0x080003D8) -- Simulated  returns 0x00 (0000ms, 0829ms total)
T3A8C 246:618 JLINK_ReadReg(R15 (PC))  returns 0x080003DA (0000ms, 0829ms total)
T3A8C 246:618 JLINK_ReadReg(XPSR)  returns 0x61000000 (0000ms, 0829ms total)
T3A8C 246:618 JLINK_Step() -- Read from C cache (2 bytes @ 0x080003DA) -- CPU_WriteMem(4 bytes @ 0x20000004) -- Simulated  returns 0x00 (0001ms, 0830ms total)
T3A8C 246:619 JLINK_ReadReg(R15 (PC))  returns 0x080003DC (0000ms, 0830ms total)
T3A8C 246:619 JLINK_ReadReg(XPSR)  returns 0x61000000 (0000ms, 0830ms total)
T3A8C 246:619 JLINK_Step() -- Read from C cache (2 bytes @ 0x080003DC) -- Simulated  returns 0x00 (0000ms, 0830ms total)
T3A8C 246:619 JLINK_ReadReg(R15 (PC))  returns 0x080003F0 (0000ms, 0830ms total)
T3A8C 246:619 JLINK_ReadReg(XPSR)  returns 0x61000000 (0000ms, 0830ms total)
T3A8C 246:619 JLINK_Step() -- Read from C cache (2 bytes @ 0x080003F0) -- CPU_ReadMem(64 bytes @ 0x20000000) -- Updating C cache (64 bytes @ 0x20000000) -- Read from C cache (4 bytes @ 0x20000010) -- Simulated  returns 0x00 (0001ms, 0831ms total)
T3A8C 246:620 JLINK_ReadReg(R15 (PC))  returns 0x080003F2 (0000ms, 0831ms total)
T3A8C 246:620 JLINK_ReadReg(XPSR)  returns 0x61000000 (0000ms, 0831ms total)
T3A8C 246:620 JLINK_Step() -- Read from C cache (2 bytes @ 0x080003F2) -- Simulated  returns 0x00 (0000ms, 0831ms total)
T3A8C 246:620 JLINK_ReadReg(R15 (PC))  returns 0x080003F4 (0000ms, 0831ms total)
T3A8C 246:620 JLINK_ReadReg(XPSR)  returns 0x81000000 (0000ms, 0831ms total)
T3A8C 246:620 JLINK_Step() -- Read from C cache (2 bytes @ 0x080003F4) -- Simulated  returns 0x00 (0000ms, 0831ms total)
T3A8C 246:620 JLINK_ReadReg(R15 (PC))  returns 0x080003F6 (0000ms, 0831ms total)
T3A8C 246:620 JLINK_ReadReg(XPSR)  returns 0x81000000 (0000ms, 0831ms total)
T3A8C 246:620 JLINK_Step() -- Read from C cache (2 bytes @ 0x080003F6) -- Read from C cache (1 bytes @ 0x20000000) -- Simulated  returns 0x00 (0000ms, 0831ms total)
T3A8C 246:620 JLINK_ReadReg(R15 (PC))  returns 0x080003F8 (0000ms, 0831ms total)
T3A8C 246:620 JLINK_ReadReg(XPSR)  returns 0x81000000 (0000ms, 0831ms total)
T3A8C 246:620 JLINK_Step() -- Read from C cache (2 bytes @ 0x080003F8) -- Simulated  returns 0x00 (0000ms, 0831ms total)
T3A8C 246:620 JLINK_ReadReg(R15 (PC))  returns 0x080003FA (0000ms, 0831ms total)
T3A8C 246:620 JLINK_ReadReg(XPSR)  returns 0x61000000 (0000ms, 0831ms total)
T3A8C 246:620 JLINK_Step() -- Read from C cache (2 bytes @ 0x080003FA) -- Simulated  returns 0x00 (0000ms, 0831ms total)
T3A8C 246:620 JLINK_ReadReg(R15 (PC))  returns 0x080003E0 (0000ms, 0831ms total)
T3A8C 246:621 JLINK_ReadReg(XPSR)  returns 0x61000000 (0000ms, 0831ms total)
T3A8C 246:621 JLINK_Step() -- Read from C cache (2 bytes @ 0x080003E0) -- Read from C cache (2 bytes @ 0x080003E2) -- Not simulated -- CPU_WriteMem(4 bytes @ 0xE0002008) -- CPU_WriteMem(4 bytes @ 0xE000200C) -- CPU_WriteMem(4 bytes @ 0xE0001004)  returns 0x00 (0008ms, 0839ms total)
T3A8C 246:630 JLINK_ReadReg(R15 (PC))  returns 0x080003E4 (0000ms, 0839ms total)
T3A8C 246:630 JLINK_ReadReg(XPSR)  returns 0x61000000 (0000ms, 0839ms total)
T3A8C 246:630 JLINK_SetBPEx(Addr = 0x080003E8, Type = 0xFFFFFFF2)  returns 0x00000007 (0000ms, 0839ms total)
T3A8C 246:630 JLINK_SetBPEx(Addr = 0x0800040E, Type = 0xFFFFFFF2)  returns 0x00000008 (0000ms, 0839ms total)
T3A8C 246:630 JLINK_Go() -- CPU_WriteMem(4 bytes @ 0xE0002008) -- CPU_WriteMem(4 bytes @ 0xE000200C) (0003ms, 0842ms total)
T3A8C 246:733 JLINK_IsHalted()  returns TRUE (0003ms, 0845ms total)
T3A8C 246:736 JLINK_Halt()  returns 0x00 (0000ms, 0842ms total)
T3A8C 246:736 JLINK_IsHalted()  returns TRUE (0000ms, 0842ms total)
T3A8C 246:736 JLINK_IsHalted()  returns TRUE (0000ms, 0842ms total)
T3A8C 246:736 JLINK_IsHalted()  returns TRUE (0000ms, 0842ms total)
T3A8C 246:736 JLINK_ReadReg(R15 (PC))  returns 0x080003E8 (0000ms, 0842ms total)
T3A8C 246:736 JLINK_ReadReg(XPSR)  returns 0x61000000 (0000ms, 0842ms total)
T3A8C 246:736 JLINK_ClrBPEx(BPHandle = 0x00000007)  returns 0x00 (0000ms, 0842ms total)
T3A8C 246:736 JLINK_ClrBPEx(BPHandle = 0x00000008)  returns 0x00 (0000ms, 0842ms total)
T3A8C 246:736 JLINK_ReadMemU32(0xE000ED30, 0x0001 Items, ...) -- CPU_ReadMem(4 bytes @ 0xE000ED30) - Data: 03 00 00 00  returns 0x01 (0001ms, 0843ms total)
T3A8C 246:737 JLINK_ReadMemU32(0xE0001028, 0x0001 Items, ...) -- CPU_ReadMem(4 bytes @ 0xE0001028) - Data: 00 00 00 00  returns 0x01 (0001ms, 0844ms total)
T3A8C 246:739 JLINK_ReadMemU32(0xE0001038, 0x0001 Items, ...) -- CPU_ReadMem(4 bytes @ 0xE0001038) - Data: 00 02 00 00  returns 0x01 (0000ms, 0845ms total)
T3A8C 246:739 JLINK_ReadMemU32(0xE0001048, 0x0001 Items, ...) -- CPU_ReadMem(4 bytes @ 0xE0001048) - Data: 00 00 00 00  returns 0x01 (0002ms, 0847ms total)
T3A8C 246:741 JLINK_ReadMemU32(0xE0001058, 0x0001 Items, ...) -- CPU_ReadMem(4 bytes @ 0xE0001058) - Data: 00 00 00 00  returns 0x01 (0001ms, 0848ms total)
T3A8C 246:742 JLINK_ReadReg(R0)  returns 0x00000004 (0000ms, 0848ms total)
T3A8C 246:742 JLINK_ReadReg(R1)  returns 0x00000000 (0000ms, 0848ms total)
T3A8C 246:742 JLINK_ReadReg(R2)  returns 0x00001FFD (0000ms, 0848ms total)
T3A8C 246:742 JLINK_ReadReg(R3)  returns 0x000B0000 (0000ms, 0848ms total)
T3A8C 246:742 JLINK_ReadReg(R4)  returns 0x20000000 (0000ms, 0848ms total)
T3A8C 246:742 JLINK_ReadReg(R5)  returns 0x08008000 (0000ms, 0848ms total)
T3A8C 246:742 JLINK_ReadReg(R6)  returns 0x0800C000 (0000ms, 0848ms total)
T3A8C 246:742 JLINK_ReadReg(R7)  returns 0x00000000 (0000ms, 0848ms total)
T3A8C 246:742 JLINK_ReadReg(R8)  returns 0xFFFEDFDD (0000ms, 0848ms total)
T3A8C 246:742 JLINK_ReadReg(R9)  returns 0xFF765FFD (0000ms, 0848ms total)
T3A8C 246:742 JLINK_ReadReg(R10)  returns 0x9D65B81A (0000ms, 0848ms total)
T3A8C 246:742 JLINK_ReadReg(R11)  returns 0x8C8A3D42 (0000ms, 0848ms total)
T3A8C 246:742 JLINK_ReadReg(R12)  returns 0xFBFFEE7F (0000ms, 0848ms total)
T3A8C 246:742 JLINK_ReadReg(R13 (SP))  returns 0x20000418 (0000ms, 0848ms total)
T3A8C 246:742 JLINK_ReadReg(R14)  returns 0x08000281 (0000ms, 0848ms total)
T3A8C 246:742 JLINK_ReadReg(R15 (PC))  returns 0x080003E8 (0000ms, 0848ms total)
T3A8C 246:742 JLINK_ReadReg(XPSR)  returns 0x61000000 (0000ms, 0848ms total)
T3A8C 246:742 JLINK_ReadReg(MSP)  returns 0x20000418 (0000ms, 0848ms total)
T3A8C 246:742 JLINK_ReadReg(PSP)  returns 0x344517F8 (0000ms, 0848ms total)
T3A8C 246:742 JLINK_ReadReg(CFBP)  returns 0x00000000 (0000ms, 0848ms total)
T3850 246:744 JLINK_ReadMem (0x08008000, 0x0110 Bytes, ...) -- CPU_ReadMem(320 bytes @ 0x08008000) -- Updating C cache (320 bytes @ 0x08008000) -- Read from C cache (272 bytes @ 0x08008000) - Data: FF FF FF FF FF FF FF FF FF FF FF FF FF FF FF FF ...  returns 0x00 (0002ms, 0850ms total)
T3850 246:749 JLINK_ReadMem (0x080003E8, 0x0018 Bytes, ...) -- CPU_ReadMem(64 bytes @ 0x080003C0) -- Updating C cache (64 bytes @ 0x080003C0) -- Read from C cache (24 bytes @ 0x080003E8) - Data: 20 70 60 68 40 1C 60 60 21 69 88 42 02 D2 21 78 ...  returns 0x00 (0001ms, 0851ms total)
T3850 246:750 JLINK_ReadMem (0x08000400, 0x0024 Bytes, ...) -- CPU_ReadMem(64 bytes @ 0x08000400) -- Updating C cache (64 bytes @ 0x08000400) -- Read from C cache (36 bytes @ 0x08000400) - Data: 0A E0 00 BF D4 E9 02 01 FF F7 02 FF 20 70 A0 68 ...  returns 0x00 (0001ms, 0852ms total)
T3A8C 247:511 JLINK_Step() -- Read from C cache (2 bytes @ 0x080003E8) -- CPU_ReadMem(4 bytes @ 0xE0001004) -- CPU_WriteMem(1 bytes @ 0x20000000) -- Simulated  returns 0x00 (0003ms, 0855ms total)
T3A8C 247:514 JLINK_ReadReg(R15 (PC))  returns 0x080003EA (0000ms, 0855ms total)
T3A8C 247:514 JLINK_ReadReg(XPSR)  returns 0x61000000 (0000ms, 0855ms total)
T3A8C 247:514 JLINK_Step() -- Read from C cache (2 bytes @ 0x080003EA) -- CPU_ReadMem(64 bytes @ 0x20000000) -- Updating C cache (64 bytes @ 0x20000000) -- Read from C cache (4 bytes @ 0x20000004) -- Simulated  returns 0x00 (0002ms, 0857ms total)
T3A8C 247:516 JLINK_ReadReg(R15 (PC))  returns 0x080003EC (0000ms, 0857ms total)
T3A8C 247:516 JLINK_ReadReg(XPSR)  returns 0x61000000 (0000ms, 0857ms total)
T3A8C 247:516 JLINK_Step() -- Read from C cache (2 bytes @ 0x080003EC) -- Simulated  returns 0x00 (0000ms, 0857ms total)
T3A8C 247:516 JLINK_ReadReg(R15 (PC))  returns 0x080003EE (0000ms, 0857ms total)
T3A8C 247:516 JLINK_ReadReg(XPSR)  returns 0x01000000 (0000ms, 0857ms total)
T3A8C 247:516 JLINK_Step() -- Read from C cache (2 bytes @ 0x080003EE) -- CPU_WriteMem(4 bytes @ 0x20000004) -- Simulated  returns 0x00 (0001ms, 0858ms total)
T3A8C 247:517 JLINK_ReadReg(R15 (PC))  returns 0x080003F0 (0000ms, 0858ms total)
T3A8C 247:517 JLINK_ReadReg(XPSR)  returns 0x01000000 (0000ms, 0858ms total)
T3A8C 247:517 JLINK_Step() -- Read from C cache (2 bytes @ 0x080003F0) -- CPU_ReadMem(64 bytes @ 0x20000000) -- Updating C cache (64 bytes @ 0x20000000) -- Read from C cache (4 bytes @ 0x20000010) -- Simulated  returns 0x00 (0001ms, 0859ms total)
T3A8C 247:518 JLINK_ReadReg(R15 (PC))  returns 0x080003F2 (0000ms, 0859ms total)
T3A8C 247:518 JLINK_ReadReg(XPSR)  returns 0x01000000 (0000ms, 0859ms total)
T3A8C 247:518 JLINK_Step() -- Read from C cache (2 bytes @ 0x080003F2) -- Simulated  returns 0x00 (0000ms, 0859ms total)
T3A8C 247:518 JLINK_ReadReg(R15 (PC))  returns 0x080003F4 (0000ms, 0859ms total)
T3A8C 247:518 JLINK_ReadReg(XPSR)  returns 0x81000000 (0000ms, 0859ms total)
T3A8C 247:518 JLINK_Step() -- Read from C cache (2 bytes @ 0x080003F4) -- Simulated  returns 0x00 (0000ms, 0859ms total)
T3A8C 247:518 JLINK_ReadReg(R15 (PC))  returns 0x080003F6 (0000ms, 0859ms total)
T3A8C 247:518 JLINK_ReadReg(XPSR)  returns 0x81000000 (0000ms, 0859ms total)
T3A8C 247:518 JLINK_Step() -- Read from C cache (2 bytes @ 0x080003F6) -- Read from C cache (1 bytes @ 0x20000000) -- Simulated  returns 0x00 (0000ms, 0859ms total)
T3A8C 247:518 JLINK_ReadReg(R15 (PC))  returns 0x080003F8 (0000ms, 0859ms total)
T3A8C 247:518 JLINK_ReadReg(XPSR)  returns 0x81000000 (0000ms, 0859ms total)
T3A8C 247:518 JLINK_Step() -- Read from C cache (2 bytes @ 0x080003F8) -- Simulated  returns 0x00 (0000ms, 0859ms total)
T3A8C 247:518 JLINK_ReadReg(R15 (PC))  returns 0x080003FA (0000ms, 0859ms total)
T3A8C 247:518 JLINK_ReadReg(XPSR)  returns 0x61000000 (0000ms, 0859ms total)
T3A8C 247:518 JLINK_Step() -- Read from C cache (2 bytes @ 0x080003FA) -- Simulated  returns 0x00 (0000ms, 0859ms total)
T3A8C 247:518 JLINK_ReadReg(R15 (PC))  returns 0x080003E0 (0000ms, 0859ms total)
T3A8C 247:518 JLINK_ReadReg(XPSR)  returns 0x61000000 (0000ms, 0859ms total)
T3A8C 247:518 JLINK_ReadMem (0x080003DE, 0x0002 Bytes, ...) -- Read from C cache (2 bytes @ 0x080003DE) - Data: 00 BF  returns 0x00 (0000ms, 0859ms total)
T3A8C 247:518 JLINK_ReadMem (0x080003E0, 0x0020 Bytes, ...) -- Read from C cache (32 bytes @ 0x080003E0) - Data: 05 EB C0 20 FF F7 DA FE 20 70 60 68 40 1C 60 60 ...  returns 0x00 (0000ms, 0859ms total)
T3A8C 247:518 JLINK_ReadMem (0x08000400, 0x001C Bytes, ...) -- Read from C cache (28 bytes @ 0x08000400) - Data: 0A E0 00 BF D4 E9 02 01 FF F7 02 FF 20 70 A0 68 ...  returns 0x00 (0000ms, 0859ms total)
T3A8C 247:518 JLINK_Step() -- Read from C cache (2 bytes @ 0x080003E0) -- Read from C cache (2 bytes @ 0x080003E2) -- Not simulated -- CPU_WriteMem(4 bytes @ 0xE0002008) -- CPU_WriteMem(4 bytes @ 0xE000200C) -- CPU_WriteMem(4 bytes @ 0xE0001004)  returns 0x00 (0008ms, 0867ms total)
T3A8C 247:526 JLINK_ReadReg(R15 (PC))  returns 0x080003E4 (0000ms, 0867ms total)
T3A8C 247:526 JLINK_ReadReg(XPSR)  returns 0x61000000 (0000ms, 0867ms total)
T3A8C 247:526 JLINK_SetBPEx(Addr = 0x080003E8, Type = 0xFFFFFFF2)  returns 0x00000009 (0000ms, 0867ms total)
T3A8C 247:526 JLINK_SetBPEx(Addr = 0x0800040E, Type = 0xFFFFFFF2)  returns 0x0000000A (0000ms, 0867ms total)
T3A8C 247:526 JLINK_Go() -- CPU_WriteMem(4 bytes @ 0xE0002008) -- CPU_WriteMem(4 bytes @ 0xE000200C) (0002ms, 0869ms total)
T3A8C 247:628 JLINK_IsHalted()  returns TRUE (0004ms, 0873ms total)
T3A8C 247:632 JLINK_Halt()  returns 0x00 (0000ms, 0869ms total)
T3A8C 247:632 JLINK_IsHalted()  returns TRUE (0000ms, 0869ms total)
T3A8C 247:632 JLINK_IsHalted()  returns TRUE (0000ms, 0869ms total)
T3A8C 247:632 JLINK_IsHalted()  returns TRUE (0000ms, 0869ms total)
T3A8C 247:632 JLINK_ReadReg(R15 (PC))  returns 0x080003E8 (0000ms, 0869ms total)
T3A8C 247:632 JLINK_ReadReg(XPSR)  returns 0x61000000 (0000ms, 0869ms total)
T3A8C 247:632 JLINK_ClrBPEx(BPHandle = 0x00000009)  returns 0x00 (0000ms, 0869ms total)
T3A8C 247:632 JLINK_ClrBPEx(BPHandle = 0x0000000A)  returns 0x00 (0000ms, 0869ms total)
T3A8C 247:632 JLINK_ReadMemU32(0xE000ED30, 0x0001 Items, ...) -- CPU_ReadMem(4 bytes @ 0xE000ED30) - Data: 03 00 00 00  returns 0x01 (0001ms, 0870ms total)
T3A8C 247:633 JLINK_ReadMemU32(0xE0001028, 0x0001 Items, ...) -- CPU_ReadMem(4 bytes @ 0xE0001028) - Data: 00 00 00 00  returns 0x01 (0001ms, 0871ms total)
T3A8C 247:634 JLINK_ReadMemU32(0xE0001038, 0x0001 Items, ...) -- CPU_ReadMem(4 bytes @ 0xE0001038) - Data: 00 02 00 00  returns 0x01 (0001ms, 0872ms total)
T3A8C 247:635 JLINK_ReadMemU32(0xE0001048, 0x0001 Items, ...) -- CPU_ReadMem(4 bytes @ 0xE0001048) - Data: 00 00 00 00  returns 0x01 (0001ms, 0873ms total)
T3A8C 247:636 JLINK_ReadMemU32(0xE0001058, 0x0001 Items, ...) -- CPU_ReadMem(4 bytes @ 0xE0001058) - Data: 00 00 00 00  returns 0x01 (0001ms, 0874ms total)
